time	V(clk)	V(clkb)	V(ind)	V(outq)
0.000000000000000e+00	0.000000e+00	5.000000e+00	0.000000e+00	2.732717e+00
3.906249931451836e-16	1.953125e-05	4.999980e+00	0.000000e+00	2.732717e+00
3.906249931451838e-15	1.953125e-04	4.999805e+00	0.000000e+00	2.732717e+00
7.421874869758492e-15	3.710937e-04	4.999629e+00	0.000000e+00	2.732717e+00
1.093749980806514e-14	5.468750e-04	4.999453e+00	0.000000e+00	2.732717e+00
1.445312474637180e-14	7.226562e-04	4.999277e+00	0.000000e+00	2.732717e+00
1.796874968467845e-14	8.984375e-04	4.999102e+00	0.000000e+00	2.732717e+00
2.148437462298510e-14	1.074219e-03	4.998926e+00	0.000000e+00	2.732717e+00
2.499999956129175e-14	1.250000e-03	4.998750e+00	0.000000e+00	2.732717e+00
4.999999912258350e-14	2.500000e-03	4.997500e+00	0.000000e+00	2.732717e+00
9.999999824516700e-14	5.000000e-03	4.995000e+00	0.000000e+00	2.732716e+00
1.999999964903340e-13	1.000000e-02	4.990000e+00	0.000000e+00	2.732714e+00
3.999999929806680e-13	2.000000e-02	4.980000e+00	0.000000e+00	2.732710e+00
7.999999859613360e-13	4.000000e-02	4.960000e+00	0.000000e+00	2.732701e+00
1.599999971922672e-12	8.000000e-02	4.920000e+00	0.000000e+00	2.732687e+00
3.199999943845344e-12	1.600000e-01	4.840000e+00	0.000000e+00	2.732669e+00
6.399999887690688e-12	3.200000e-01	4.680000e+00	0.000000e+00	2.732667e+00
1.279999977538138e-11	6.400000e-01	4.360000e+00	0.000000e+00	2.732793e+00
2.559999955076275e-11	1.280000e+00	3.720000e+00	0.000000e+00	2.733566e+00
4.374164089624539e-11	2.187082e+00	2.812918e+00	0.000000e+00	2.731359e+00
6.337010041239930e-11	3.168505e+00	1.831495e+00	0.000000e+00	2.698874e+00
8.385690350324966e-11	4.192845e+00	8.071548e-01	0.000000e+00	2.602860e+00
1.000000000000000e-10	5.000000e+00	0.000000e+00	0.000000e+00	2.466098e+00
1.016143096496751e-10	5.000000e+00	0.000000e+00	0.000000e+00	2.448511e+00
1.048429289490251e-10	5.000000e+00	0.000000e+00	0.000000e+00	2.411826e+00
1.113001675477253e-10	5.000000e+00	0.000000e+00	0.000000e+00	2.330062e+00
1.242146447451255e-10	5.000000e+00	0.000000e+00	0.000000e+00	2.139721e+00
1.500435991399261e-10	5.000000e+00	0.000000e+00	0.000000e+00	1.691037e+00
1.837293483294528e-10	5.000000e+00	0.000000e+00	0.000000e+00	1.090540e+00
2.161764209649088e-10	5.000000e+00	0.000000e+00	0.000000e+00	6.302160e-01
2.514839214382869e-10	5.000000e+00	0.000000e+00	0.000000e+00	3.104530e-01
2.905464214382869e-10	5.000000e+00	0.000000e+00	0.000000e+00	1.308063e-01
3.296089214382869e-10	5.000000e+00	0.000000e+00	0.000000e+00	5.563495e-02
3.686714214382869e-10	5.000000e+00	0.000000e+00	0.000000e+00	2.561127e-02
4.077339214382868e-10	5.000000e+00	0.000000e+00	0.000000e+00	1.323520e-02
4.467964214382868e-10	5.000000e+00	0.000000e+00	0.000000e+00	7.775643e-03
4.858589214382868e-10	5.000000e+00	0.000000e+00	0.000000e+00	5.028339e-03
5.249214214382869e-10	5.000000e+00	0.000000e+00	0.000000e+00	3.513841e-03
5.639839214382869e-10	5.000000e+00	0.000000e+00	0.000000e+00	2.519147e-03
6.030464214382869e-10	5.000000e+00	0.000000e+00	0.000000e+00	1.873048e-03
6.421089214382870e-10	5.000000e+00	0.000000e+00	0.000000e+00	1.376204e-03
6.811714214382870e-10	5.000000e+00	0.000000e+00	0.000000e+00	1.045836e-03
7.202339214382871e-10	5.000000e+00	0.000000e+00	0.000000e+00	7.679151e-04
7.592964214382871e-10	5.000000e+00	0.000000e+00	0.000000e+00	5.924465e-04
7.983589214382871e-10	5.000000e+00	0.000000e+00	0.000000e+00	4.299273e-04
8.374214214382872e-10	5.000000e+00	0.000000e+00	0.000000e+00	3.381223e-04
8.764839214382872e-10	5.000000e+00	0.000000e+00	0.000000e+00	2.399053e-04
9.155464214382873e-10	5.000000e+00	0.000000e+00	0.000000e+00	1.944343e-04
9.546089214382872e-10	5.000000e+00	0.000000e+00	0.000000e+00	1.327767e-04
9.936714214382872e-10	5.000000e+00	0.000000e+00	0.000000e+00	1.130071e-04
1.032733921438287e-09	5.000000e+00	0.000000e+00	0.000000e+00	7.236483e-05
1.071796421438287e-09	5.000000e+00	0.000000e+00	0.000000e+00	6.672521e-05
1.110858921438287e-09	5.000000e+00	0.000000e+00	0.000000e+00	3.835054e-05
1.149921421438287e-09	5.000000e+00	0.000000e+00	0.000000e+00	4.033929e-05
1.188983921438287e-09	5.000000e+00	0.000000e+00	0.000000e+00	1.927139e-05
1.228046421438287e-09	5.000000e+00	0.000000e+00	0.000000e+00	2.557322e-05
1.267108921438288e-09	5.000000e+00	0.000000e+00	0.000000e+00	9.101303e-06
1.306171421438288e-09	5.000000e+00	0.000000e+00	0.000000e+00	1.688162e-05
1.345233921438288e-09	5.000000e+00	0.000000e+00	0.000000e+00	3.141975e-06
1.384296421438288e-09	5.000000e+00	0.000000e+00	0.000000e+00	1.167620e-05
1.423358921438288e-09	5.000000e+00	0.000000e+00	0.000000e+00	-1.228461e-07
1.462421421438288e-09	5.000000e+00	0.000000e+00	0.000000e+00	8.558917e-06
1.501483921438288e-09	5.000000e+00	0.000000e+00	0.000000e+00	-1.830356e-06
1.540546421438288e-09	5.000000e+00	0.000000e+00	0.000000e+00	6.686635e-06
1.579608921438288e-09	5.000000e+00	0.000000e+00	0.000000e+00	-2.642974e-06
1.618671421438288e-09	5.000000e+00	0.000000e+00	0.000000e+00	5.483116e-06
1.657733921438288e-09	5.000000e+00	0.000000e+00	0.000000e+00	-2.968975e-06
1.696796421438288e-09	5.000000e+00	0.000000e+00	0.000000e+00	4.595428e-06
1.735858921438288e-09	5.000000e+00	0.000000e+00	0.000000e+00	-3.114363e-06
1.774921421438288e-09	5.000000e+00	0.000000e+00	0.000000e+00	3.972947e-06
1.813983921438288e-09	5.000000e+00	0.000000e+00	0.000000e+00	-3.025901e-06
1.853046421438288e-09	5.000000e+00	0.000000e+00	0.000000e+00	3.506149e-06
1.892108921438288e-09	5.000000e+00	0.000000e+00	0.000000e+00	-2.851660e-06
1.931171421438288e-09	5.000000e+00	0.000000e+00	0.000000e+00	3.161043e-06
1.970233921438288e-09	5.000000e+00	0.000000e+00	0.000000e+00	-2.582963e-06
2.000000000000000e-09	5.000000e+00	0.000000e+00	0.000000e+00	2.777541e-06
2.002976607856171e-09	5.000000e+00	0.000000e+00	1.488304e-01	3.372465e-05
2.008929823568513e-09	5.000000e+00	0.000000e+00	4.464912e-01	1.732622e-04
2.020836254993198e-09	5.000000e+00	0.000000e+00	1.041813e+00	7.166596e-04
2.039263056577665e-09	5.000000e+00	0.000000e+00	1.963153e+00	1.223135e-03
2.064026111503293e-09	5.000000e+00	0.000000e+00	3.201306e+00	-3.480149e-04
2.087294612194017e-09	5.000000e+00	0.000000e+00	4.364731e+00	-5.267764e-03
2.100000000000000e-09	5.000000e+00	0.000000e+00	5.000000e+00	-9.619108e-03
2.101270538780599e-09	5.000000e+00	0.000000e+00	5.000000e+00	-1.013011e-02
2.103811616341795e-09	5.000000e+00	0.000000e+00	5.000000e+00	-1.117100e-02
2.108893771464188e-09	5.000000e+00	0.000000e+00	5.000000e+00	-1.328235e-02
2.119058081708975e-09	5.000000e+00	0.000000e+00	5.000000e+00	-1.838772e-02
2.134813739937633e-09	5.000000e+00	0.000000e+00	5.000000e+00	-2.821477e-02
2.166325056394949e-09	5.000000e+00	0.000000e+00	5.000000e+00	-1.947883e-02
2.205387556394949e-09	5.000000e+00	0.000000e+00	5.000000e+00	1.472339e-01
2.244450056394950e-09	5.000000e+00	0.000000e+00	5.000000e+00	5.270103e-01
2.283512556394950e-09	5.000000e+00	0.000000e+00	5.000000e+00	1.195685e+00
2.322575056394950e-09	5.000000e+00	0.000000e+00	5.000000e+00	2.204236e+00
2.361637556394950e-09	5.000000e+00	0.000000e+00	5.000000e+00	3.355304e+00
2.391531800062109e-09	5.000000e+00	0.000000e+00	5.000000e+00	4.080816e+00
2.425077149587806e-09	5.000000e+00	0.000000e+00	5.000000e+00	4.562303e+00
2.462076296639424e-09	5.000000e+00	0.000000e+00	5.000000e+00	4.792583e+00
2.488123856927686e-09	5.000000e+00	0.000000e+00	5.000000e+00	4.857062e+00
2.519811466719850e-09	5.000000e+00	0.000000e+00	5.000000e+00	4.911116e+00
2.550253718612078e-09	5.000000e+00	0.000000e+00	5.000000e+00	4.947590e+00
2.582053127823496e-09	5.000000e+00	0.000000e+00	5.000000e+00	4.970949e+00
2.616069787426903e-09	5.000000e+00	0.000000e+00	5.000000e+00	4.984560e+00
2.655132287426903e-09	5.000000e+00	0.000000e+00	5.000000e+00	4.992167e+00
2.694194787426903e-09	5.000000e+00	0.000000e+00	5.000000e+00	4.995678e+00
2.733257287426903e-09	5.000000e+00	0.000000e+00	5.000000e+00	4.997379e+00
2.772319787426903e-09	5.000000e+00	0.000000e+00	5.000000e+00	4.998326e+00
2.811382287426903e-09	5.000000e+00	0.000000e+00	5.000000e+00	4.998867e+00
2.850444787426903e-09	5.000000e+00	0.000000e+00	5.000000e+00	4.999237e+00
2.889507287426903e-09	5.000000e+00	0.000000e+00	5.000000e+00	4.999459e+00
2.928569787426903e-09	5.000000e+00	0.000000e+00	5.000000e+00	4.999635e+00
2.967632287426903e-09	5.000000e+00	0.000000e+00	5.000000e+00	4.999733e+00
3.006694787426903e-09	5.000000e+00	0.000000e+00	5.000000e+00	4.999825e+00
3.045757287426903e-09	5.000000e+00	0.000000e+00	5.000000e+00	4.999866e+00
3.084819787426903e-09	5.000000e+00	0.000000e+00	5.000000e+00	4.999917e+00
3.123882287426903e-09	5.000000e+00	0.000000e+00	5.000000e+00	4.999931e+00
3.162944787426903e-09	5.000000e+00	0.000000e+00	5.000000e+00	4.999962e+00
3.202007287426903e-09	5.000000e+00	0.000000e+00	5.000000e+00	4.999963e+00
3.241069787426903e-09	5.000000e+00	0.000000e+00	5.000000e+00	4.999984e+00
3.280132287426903e-09	5.000000e+00	0.000000e+00	5.000000e+00	4.999979e+00
3.319194787426903e-09	5.000000e+00	0.000000e+00	5.000000e+00	4.999995e+00
3.358257287426903e-09	5.000000e+00	0.000000e+00	5.000000e+00	4.999987e+00
3.397319787426903e-09	5.000000e+00	0.000000e+00	5.000000e+00	5.000000e+00
3.436382287426903e-09	5.000000e+00	0.000000e+00	5.000000e+00	4.999990e+00
3.475444787426904e-09	5.000000e+00	0.000000e+00	5.000000e+00	5.000003e+00
3.514507287426904e-09	5.000000e+00	0.000000e+00	5.000000e+00	4.999993e+00
3.553569787426904e-09	5.000000e+00	0.000000e+00	5.000000e+00	5.000004e+00
3.592632287426904e-09	5.000000e+00	0.000000e+00	5.000000e+00	4.999994e+00
3.631694787426904e-09	5.000000e+00	0.000000e+00	5.000000e+00	5.000005e+00
3.670757287426904e-09	5.000000e+00	0.000000e+00	5.000000e+00	4.999994e+00
3.709819787426904e-09	5.000000e+00	0.000000e+00	5.000000e+00	5.000005e+00
3.748882287426903e-09	5.000000e+00	0.000000e+00	5.000000e+00	4.999995e+00
3.787944787426903e-09	5.000000e+00	0.000000e+00	5.000000e+00	5.000005e+00
3.827007287426903e-09	5.000000e+00	0.000000e+00	5.000000e+00	4.999995e+00
3.866069787426902e-09	5.000000e+00	0.000000e+00	5.000000e+00	5.000005e+00
3.905132287426902e-09	5.000000e+00	0.000000e+00	5.000000e+00	4.999995e+00
3.944194787426902e-09	5.000000e+00	0.000000e+00	5.000000e+00	5.000005e+00
3.983257287426901e-09	5.000000e+00	0.000000e+00	5.000000e+00	4.999995e+00
4.022319787426901e-09	5.000000e+00	0.000000e+00	5.000000e+00	5.000005e+00
4.061382287426900e-09	5.000000e+00	0.000000e+00	5.000000e+00	4.999995e+00
4.100000000000000e-09	5.000000e+00	0.000000e+00	5.000000e+00	5.000005e+00
4.103062113967586e-09	5.000000e+00	0.000000e+00	4.846894e+00	4.999920e+00
4.109186341902758e-09	5.000000e+00	0.000000e+00	4.540683e+00	4.999625e+00
4.121434797773100e-09	5.000000e+00	0.000000e+00	3.928260e+00	4.998693e+00
4.136704687414155e-09	5.000000e+00	0.000000e+00	3.164766e+00	4.998625e+00
4.157311997034826e-09	5.000000e+00	0.000000e+00	2.134400e+00	5.003374e+00
4.182552908336016e-09	5.000000e+00	0.000000e+00	8.723546e-01	5.019265e+00
4.200000000000000e-09	5.000000e+00	0.000000e+00	0.000000e+00	5.036281e+00
4.201744709166399e-09	5.000000e+00	0.000000e+00	0.000000e+00	5.038210e+00
4.205234127499196e-09	5.000000e+00	0.000000e+00	0.000000e+00	5.042330e+00
4.212212964164790e-09	5.000000e+00	0.000000e+00	0.000000e+00	5.051824e+00
4.225469557538552e-09	5.000000e+00	0.000000e+00	0.000000e+00	5.058424e+00
4.251982744286079e-09	5.000000e+00	0.000000e+00	0.000000e+00	4.997173e+00
4.283593147277710e-09	5.000000e+00	0.000000e+00	0.000000e+00	4.821668e+00
4.322655647277710e-09	5.000000e+00	0.000000e+00	0.000000e+00	4.477964e+00
4.361718147277710e-09	5.000000e+00	0.000000e+00	0.000000e+00	3.949786e+00
4.400780647277709e-09	5.000000e+00	0.000000e+00	0.000000e+00	3.211703e+00
4.439843147277709e-09	5.000000e+00	0.000000e+00	0.000000e+00	2.324306e+00
4.474794873901647e-09	5.000000e+00	0.000000e+00	0.000000e+00	1.489272e+00
4.510078837554972e-09	5.000000e+00	0.000000e+00	0.000000e+00	8.152528e-01
4.542739864341701e-09	5.000000e+00	0.000000e+00	0.000000e+00	4.485959e-01
4.572848735175373e-09	5.000000e+00	0.000000e+00	0.000000e+00	2.627032e-01
4.604376492806614e-09	5.000000e+00	0.000000e+00	0.000000e+00	1.433212e-01
4.643438992806613e-09	5.000000e+00	0.000000e+00	0.000000e+00	6.409659e-02
4.682501492806613e-09	5.000000e+00	0.000000e+00	0.000000e+00	2.863793e-02
4.721563992806612e-09	5.000000e+00	0.000000e+00	0.000000e+00	1.364678e-02
4.760626492806612e-09	5.000000e+00	0.000000e+00	0.000000e+00	7.175595e-03
4.799688992806612e-09	5.000000e+00	0.000000e+00	0.000000e+00	4.284334e-03
4.838751492806611e-09	5.000000e+00	0.000000e+00	0.000000e+00	2.769220e-03
4.877813992806611e-09	5.000000e+00	0.000000e+00	0.000000e+00	1.960789e-03
4.916876492806611e-09	5.000000e+00	0.000000e+00	0.000000e+00	1.389165e-03
4.955938992806610e-09	5.000000e+00	0.000000e+00	0.000000e+00	1.052993e-03
4.995001492806610e-09	5.000000e+00	0.000000e+00	0.000000e+00	7.563473e-04
5.034063992806609e-09	5.000000e+00	0.000000e+00	0.000000e+00	5.931354e-04
5.073126492806609e-09	5.000000e+00	0.000000e+00	0.000000e+00	4.187852e-04
5.100000000000000e-09	5.000000e+00	0.000000e+00	0.000000e+00	3.704957e-04
5.101491272665650e-09	4.925436e+00	7.456363e-02	0.000000e+00	4.447277e-04
5.104473817996950e-09	4.776309e+00	2.236909e-01	0.000000e+00	6.137998e-04
5.110438908659550e-09	4.478055e+00	5.219454e-01	0.000000e+00	9.441277e-04
5.122369089984748e-09	3.881546e+00	1.118454e+00	0.000000e+00	5.352341e-04
5.141261828799368e-09	2.936908e+00	2.063092e+00	0.000000e+00	-9.565718e-04
5.168045342270708e-09	1.597733e+00	3.402267e+00	0.000000e+00	-1.286419e-03
5.197231075571117e-09	1.384462e-01	4.861554e+00	0.000000e+00	-2.123706e-03
5.200000000000000e-09	0.000000e+00	5.000000e+00	0.000000e+00	-2.318779e-03
5.200276892442889e-09	0.000000e+00	5.000000e+00	0.000000e+00	-2.294633e-03
5.200830677328666e-09	0.000000e+00	5.000000e+00	0.000000e+00	-2.212685e-03
5.201938247100219e-09	0.000000e+00	5.000000e+00	0.000000e+00	-2.012038e-03
5.204153386643326e-09	0.000000e+00	5.000000e+00	0.000000e+00	-1.659020e-03
5.208583665729539e-09	0.000000e+00	5.000000e+00	0.000000e+00	-1.055069e-03
5.217444223901967e-09	0.000000e+00	5.000000e+00	0.000000e+00	-2.095298e-04
5.235165340246822e-09	0.000000e+00	5.000000e+00	0.000000e+00	6.226823e-04
5.270607572936531e-09	0.000000e+00	5.000000e+00	0.000000e+00	8.778174e-04
5.309670072936530e-09	0.000000e+00	5.000000e+00	0.000000e+00	6.397386e-04
5.348732572936530e-09	0.000000e+00	5.000000e+00	0.000000e+00	4.562741e-04
5.387795072936530e-09	0.000000e+00	5.000000e+00	0.000000e+00	3.379554e-04
5.426857572936529e-09	0.000000e+00	5.000000e+00	0.000000e+00	2.503189e-04
5.465920072936529e-09	0.000000e+00	5.000000e+00	0.000000e+00	1.902342e-04
5.504982572936529e-09	0.000000e+00	5.000000e+00	0.000000e+00	1.413899e-04
5.544045072936528e-09	0.000000e+00	5.000000e+00	0.000000e+00	1.087516e-04
5.583107572936528e-09	0.000000e+00	5.000000e+00	0.000000e+00	8.015271e-05
5.622170072936528e-09	0.000000e+00	5.000000e+00	0.000000e+00	6.252954e-05
5.661232572936527e-09	0.000000e+00	5.000000e+00	0.000000e+00	4.530135e-05
5.700295072936527e-09	0.000000e+00	5.000000e+00	0.000000e+00	3.616109e-05
5.739357572936526e-09	0.000000e+00	5.000000e+00	0.000000e+00	2.542248e-05
5.778420072936526e-09	0.000000e+00	5.000000e+00	0.000000e+00	2.109789e-05
5.817482572936526e-09	0.000000e+00	5.000000e+00	0.000000e+00	1.408217e-05
5.856545072936525e-09	0.000000e+00	5.000000e+00	0.000000e+00	1.248677e-05
5.895607572936525e-09	0.000000e+00	5.000000e+00	0.000000e+00	7.616105e-06
5.934670072936525e-09	0.000000e+00	5.000000e+00	0.000000e+00	7.559794e-06
5.973732572936524e-09	0.000000e+00	5.000000e+00	0.000000e+00	3.933067e-06
6.000000000000001e-09	0.000000e+00	5.000000e+00	5.684342e-14	5.092435e-06
6.002626742706348e-09	0.000000e+00	5.000000e+00	1.313371e-01	4.192208e-06
6.007880228119044e-09	0.000000e+00	5.000000e+00	3.940114e-01	3.965969e-06
6.018387198944434e-09	0.000000e+00	5.000000e+00	9.193599e-01	3.659531e-06
6.037736151987817e-09	0.000000e+00	5.000000e+00	1.886808e+00	2.945214e-06
6.067855796825904e-09	0.000000e+00	5.000000e+00	3.392790e+00	2.339033e-06
6.091796292208492e-09	0.000000e+00	5.000000e+00	4.589815e+00	1.656834e-06
6.100000000000001e-09	0.000000e+00	5.000000e+00	5.000000e+00	1.609546e-06
6.100820370779152e-09	0.000000e+00	5.000000e+00	5.000000e+00	1.487852e-06
6.102461112337454e-09	0.000000e+00	5.000000e+00	5.000000e+00	1.439063e-06
6.105742595454058e-09	0.000000e+00	5.000000e+00	5.000000e+00	1.494744e-06
6.112305561687265e-09	0.000000e+00	5.000000e+00	5.000000e+00	1.483988e-06
6.125431494153679e-09	0.000000e+00	5.000000e+00	5.000000e+00	1.528597e-06
6.151683359086508e-09	0.000000e+00	5.000000e+00	5.000000e+00	1.496310e-06
6.174190422695943e-09	0.000000e+00	5.000000e+00	5.000000e+00	1.647208e-06
6.202355391030297e-09	0.000000e+00	5.000000e+00	5.000000e+00	1.444076e-06
6.232200094918007e-09	0.000000e+00	5.000000e+00	5.000000e+00	1.110033e-06
6.264752349733063e-09	0.000000e+00	5.000000e+00	5.000000e+00	7.209031e-07
6.298114019197616e-09	0.000000e+00	5.000000e+00	5.000000e+00	5.267507e-07
6.337176519197615e-09	0.000000e+00	5.000000e+00	5.000000e+00	3.172471e-07
6.376239019197615e-09	0.000000e+00	5.000000e+00	5.000000e+00	2.587835e-07
6.415301519197615e-09	0.000000e+00	5.000000e+00	5.000000e+00	1.553297e-07
6.454364019197614e-09	0.000000e+00	5.000000e+00	5.000000e+00	1.516997e-07
6.493426519197614e-09	0.000000e+00	5.000000e+00	5.000000e+00	8.190385e-08
6.532489019197614e-09	0.000000e+00	5.000000e+00	5.000000e+00	9.734936e-08
6.571551519197613e-09	0.000000e+00	5.000000e+00	5.000000e+00	4.279469e-08
6.610614019197613e-09	0.000000e+00	5.000000e+00	5.000000e+00	6.787716e-08
6.649676519197612e-09	0.000000e+00	5.000000e+00	5.000000e+00	2.225545e-08
6.688739019197612e-09	0.000000e+00	5.000000e+00	5.000000e+00	5.053352e-08
6.727801519197612e-09	0.000000e+00	5.000000e+00	5.000000e+00	9.657096e-09
6.766864019197611e-09	0.000000e+00	5.000000e+00	5.000000e+00	4.005869e-08
6.805926519197611e-09	0.000000e+00	5.000000e+00	5.000000e+00	3.256651e-09
6.844989019197611e-09	0.000000e+00	5.000000e+00	5.000000e+00	3.414380e-08
6.884051519197610e-09	0.000000e+00	5.000000e+00	5.000000e+00	-3.067043e-10
6.923114019197610e-09	0.000000e+00	5.000000e+00	5.000000e+00	3.044320e-08
6.962176519197609e-09	0.000000e+00	5.000000e+00	5.000000e+00	-2.181082e-09
7.001239019197609e-09	0.000000e+00	5.000000e+00	5.000000e+00	2.810391e-08
7.040301519197609e-09	0.000000e+00	5.000000e+00	5.000000e+00	-3.083365e-09
7.079364019197608e-09	0.000000e+00	5.000000e+00	5.000000e+00	2.652335e-08
7.118426519197608e-09	0.000000e+00	5.000000e+00	5.000000e+00	-3.417639e-09
7.157489019197608e-09	0.000000e+00	5.000000e+00	5.000000e+00	2.539221e-08
7.196551519197607e-09	0.000000e+00	5.000000e+00	5.000000e+00	-3.408091e-09
7.235614019197607e-09	0.000000e+00	5.000000e+00	5.000000e+00	2.453702e-08
7.274676519197606e-09	0.000000e+00	5.000000e+00	5.000000e+00	-3.207303e-09
7.313739019197606e-09	0.000000e+00	5.000000e+00	5.000000e+00	2.383999e-08
7.352801519197606e-09	0.000000e+00	5.000000e+00	5.000000e+00	-2.905825e-09
7.391864019197605e-09	0.000000e+00	5.000000e+00	5.000000e+00	2.323881e-08
7.430926519197605e-09	0.000000e+00	5.000000e+00	5.000000e+00	-2.553080e-09
7.469989019197605e-09	0.000000e+00	5.000000e+00	5.000000e+00	2.269844e-08
7.509051519197604e-09	0.000000e+00	5.000000e+00	5.000000e+00	-2.176761e-09
7.548114019197604e-09	0.000000e+00	5.000000e+00	5.000000e+00	2.219878e-08
7.587176519197603e-09	0.000000e+00	5.000000e+00	5.000000e+00	-1.792412e-09
7.626239019197603e-09	0.000000e+00	5.000000e+00	5.000000e+00	2.172824e-08
7.665301519197603e-09	0.000000e+00	5.000000e+00	5.000000e+00	-1.408732e-09
7.704364019197602e-09	0.000000e+00	5.000000e+00	5.000000e+00	2.127990e-08
7.743426519197602e-09	0.000000e+00	5.000000e+00	5.000000e+00	-1.030548e-09
