time	V(vin)	V(vout)
0.000000000000000e+00	0.000000e+00	5.000000e+00
5.000000000000000e-10	0.000000e+00	5.000000e+00
5.019112500898475e-10	9.556250e-02	5.004906e+00
5.057337502695424e-10	2.866875e-01	5.015204e+00
5.133787506289323e-10	6.689375e-01	5.034787e+00
5.286687513477119e-10	1.433438e+00	5.055801e+00
5.499141230094621e-10	2.495706e+00	5.012534e+00
5.714821263586777e-10	3.574106e+00	4.884702e+00
5.940035174573149e-10	4.700176e+00	4.628249e+00
6.000000000000000e-10	5.000000e+00	4.535787e+00
6.005996482542685e-10	5.000000e+00	4.525077e+00
6.017989447628055e-10	5.000000e+00	4.503447e+00
6.041975377798795e-10	5.000000e+00	4.460187e+00
6.089947238140276e-10	5.000000e+00	4.375137e+00
6.185890958823237e-10	5.000000e+00	4.216789e+00
6.377778400189160e-10	5.000000e+00	3.916901e+00
6.668862027642455e-10	5.000000e+00	3.480338e+00
7.059487027642455e-10	5.000000e+00	2.920105e+00
7.450112027642456e-10	5.000000e+00	2.391686e+00
7.840737027642456e-10	5.000000e+00	1.925627e+00
8.231362027642456e-10	5.000000e+00	1.529402e+00
8.538814822612764e-10	5.000000e+00	1.264214e+00
8.888344743384707e-10	5.000000e+00	9.568107e-01
9.229190825525924e-10	5.000000e+00	6.983330e-01
9.619815825525923e-10	5.000000e+00	4.655832e-01
1.001044082552592e-09	5.000000e+00	3.003527e-01
1.040106582552592e-09	5.000000e+00	1.926258e-01
1.079169082552592e-09	5.000000e+00	1.227214e-01
1.118231582552592e-09	5.000000e+00	7.830565e-02
1.157294082552593e-09	5.000000e+00	4.952703e-02
1.196356582552593e-09	5.000000e+00	3.163913e-02
1.235419082552593e-09	5.000000e+00	1.984927e-02
1.274481582552593e-09	5.000000e+00	1.278965e-02
1.313544082552593e-09	5.000000e+00	7.902804e-03
1.352606582552593e-09	5.000000e+00	5.209463e-03
1.391669082552593e-09	5.000000e+00	3.104123e-03
1.430731582552593e-09	5.000000e+00	2.161902e-03
1.469794082552593e-09	5.000000e+00	1.178649e-03
1.508856582552593e-09	5.000000e+00	9.356039e-04
1.547919082552593e-09	5.000000e+00	4.075093e-04
1.586981582552593e-09	5.000000e+00	4.415981e-04
1.626044082552593e-09	5.000000e+00	9.969738e-05
1.665106582552593e-09	5.000000e+00	2.406578e-04
1.704169082552593e-09	5.000000e+00	-2.206853e-05
1.743231582552593e-09	5.000000e+00	1.585001e-04
1.782294082552593e-09	5.000000e+00	-6.885512e-05
1.821356582552593e-09	5.000000e+00	1.253986e-04
1.860419082552593e-09	5.000000e+00	-8.365622e-05
1.899481582552593e-09	5.000000e+00	1.112746e-04
1.938544082552593e-09	5.000000e+00	-8.781932e-05
1.977606582552593e-09	5.000000e+00	1.037920e-04
2.016669082552593e-09	5.000000e+00	-8.785501e-05
2.055731582552593e-09	5.000000e+00	9.902658e-05
2.094794082552593e-09	5.000000e+00	-8.628952e-05
2.133856582552593e-09	5.000000e+00	9.539986e-05
2.172919082552593e-09	5.000000e+00	-8.413093e-05
2.211981582552593e-09	5.000000e+00	9.227932e-05
2.251044082552593e-09	5.000000e+00	-8.178076e-05
2.290106582552593e-09	5.000000e+00	8.941061e-05
2.329169082552594e-09	5.000000e+00	-7.939813e-05
2.368231582552594e-09	5.000000e+00	8.669059e-05
2.407294082552594e-09	5.000000e+00	-7.704532e-05
2.446356582552594e-09	5.000000e+00	8.407662e-05
2.485419082552594e-09	5.000000e+00	-7.474595e-05
2.524481582552594e-09	5.000000e+00	8.155025e-05
2.563544082552594e-09	5.000000e+00	-7.250821e-05
2.602606582552594e-09	5.000000e+00	7.910277e-05
2.641669082552594e-09	5.000000e+00	-7.033419e-05
2.680731582552594e-09	5.000000e+00	7.672938e-05
2.719794082552594e-09	5.000000e+00	-6.822353e-05
2.758856582552594e-09	5.000000e+00	7.442691e-05
2.797919082552594e-09	5.000000e+00	-6.617498e-05
2.836981582552594e-09	5.000000e+00	7.219284e-05
2.876044082552594e-09	5.000000e+00	-6.418693e-05
2.915106582552594e-09	5.000000e+00	7.002499e-05
2.954169082552594e-09	5.000000e+00	-6.225768e-05
2.993231582552594e-09	5.000000e+00	6.792132e-05
3.032294082552594e-09	5.000000e+00	-6.038552e-05
3.071356582552594e-09	5.000000e+00	6.587990e-05
3.110419082552594e-09	5.000000e+00	-5.856875e-05
3.149481582552594e-09	5.000000e+00	6.389886e-05
3.188544082552594e-09	5.000000e+00	-5.680574e-05
3.227606582552594e-09	5.000000e+00	6.197642e-05
3.266669082552594e-09	5.000000e+00	-5.509489e-05
3.305731582552595e-09	5.000000e+00	6.011082e-05
3.344794082552595e-09	5.000000e+00	-5.343464e-05
3.383856582552595e-09	5.000000e+00	5.830037e-05
3.422919082552595e-09	5.000000e+00	-5.182350e-05
3.461981582552595e-09	5.000000e+00	5.654344e-05
3.501044082552595e-09	5.000000e+00	-5.026000e-05
3.540106582552595e-09	5.000000e+00	5.483844e-05
3.579169082552595e-09	5.000000e+00	-4.874272e-05
3.618231582552595e-09	5.000000e+00	5.318382e-05
3.657294082552595e-09	5.000000e+00	-4.727030e-05
3.696356582552595e-09	5.000000e+00	5.157810e-05
3.735419082552595e-09	5.000000e+00	-4.584140e-05
3.774481582552595e-09	5.000000e+00	5.001981e-05
3.813544082552594e-09	5.000000e+00	-4.445472e-05
3.852606582552594e-09	5.000000e+00	4.850756e-05
3.891669082552593e-09	5.000000e+00	-4.310902e-05
3.930731582552593e-09	5.000000e+00	4.703997e-05
3.969794082552593e-09	5.000000e+00	-4.180308e-05
4.008856582552592e-09	5.000000e+00	4.561573e-05
4.047919082552592e-09	5.000000e+00	-4.053572e-05
4.086981582552592e-09	5.000000e+00	4.423355e-05
4.126044082552591e-09	5.000000e+00	-3.930579e-05
4.165106582552591e-09	5.000000e+00	4.289219e-05
4.204169082552590e-09	5.000000e+00	-3.811219e-05
4.243231582552590e-09	5.000000e+00	4.159043e-05
4.282294082552590e-09	5.000000e+00	-3.695384e-05
4.321356582552589e-09	5.000000e+00	4.032711e-05
4.360419082552589e-09	5.000000e+00	-3.582970e-05
4.399481582552589e-09	5.000000e+00	3.910108e-05
4.438544082552588e-09	5.000000e+00	-3.473875e-05
4.477606582552588e-09	5.000000e+00	3.791125e-05
4.516669082552587e-09	5.000000e+00	-3.368001e-05
4.555731582552587e-09	5.000000e+00	3.675653e-05
4.594794082552587e-09	5.000000e+00	-3.265253e-05
4.633856582552586e-09	5.000000e+00	3.563591e-05
4.672919082552586e-09	5.000000e+00	-3.165538e-05
4.711981582552586e-09	5.000000e+00	3.454836e-05
4.751044082552585e-09	5.000000e+00	-3.068767e-05
4.790106582552585e-09	5.000000e+00	3.349291e-05
4.829169082552584e-09	5.000000e+00	-2.974852e-05
4.868231582552584e-09	5.000000e+00	3.246862e-05
4.907294082552584e-09	5.000000e+00	-2.883710e-05
4.946356582552583e-09	5.000000e+00	3.147455e-05
4.985419082552583e-09	5.000000e+00	-2.795258e-05
5.024481582552583e-09	5.000000e+00	3.050983e-05
5.063544082552582e-09	5.000000e+00	-2.709418e-05
5.102606582552582e-09	5.000000e+00	2.957358e-05
5.141669082552581e-09	5.000000e+00	-2.626111e-05
5.180731582552581e-09	5.000000e+00	2.866496e-05
5.219794082552581e-09	5.000000e+00	-2.545263e-05
5.258856582552580e-09	5.000000e+00	2.778316e-05
5.297919082552580e-09	5.000000e+00	-2.466802e-05
5.336981582552580e-09	5.000000e+00	2.692740e-05
5.376044082552579e-09	5.000000e+00	-2.390656e-05
5.415106582552579e-09	5.000000e+00	2.609689e-05
5.454169082552578e-09	5.000000e+00	-2.316759e-05
5.493231582552578e-09	5.000000e+00	2.529089e-05
5.532294082552578e-09	5.000000e+00	-2.245044e-05
5.571356582552577e-09	5.000000e+00	2.450870e-05
5.610419082552577e-09	5.000000e+00	-2.175446e-05
5.649481582552577e-09	5.000000e+00	2.374959e-05
5.688544082552576e-09	5.000000e+00	-2.107902e-05
5.727606582552576e-09	5.000000e+00	2.301290e-05
5.750000000000000e-09	5.000000e+00	-2.009416e-05
5.752239341744743e-09	4.888033e+00	-4.449858e-03
5.756718025234228e-09	4.664099e+00	-1.322203e-02
5.765675392213197e-09	4.216230e+00	-3.032525e-02
5.783590126171137e-09	3.320494e+00	-2.740823e-02
5.801711608914066e-09	2.414420e+00	6.691740e-02
5.820784182650991e-09	1.460791e+00	2.749694e-01
5.850000000000000e-09	3.907985e-14	8.500050e-01
5.852921581734901e-09	0.000000e+00	9.274585e-01
5.858764745204702e-09	0.000000e+00	1.080930e+00
5.870451072144306e-09	0.000000e+00	1.377542e+00
5.893823726023514e-09	0.000000e+00	1.937502e+00
5.932148925650821e-09	0.000000e+00	2.755865e+00
5.971211425650821e-09	0.000000e+00	3.434939e+00
6.010273925650821e-09	0.000000e+00	3.883426e+00
6.044210595446656e-09	0.000000e+00	4.133098e+00
6.071428017830706e-09	0.000000e+00	4.312253e+00
6.102442881911288e-09	0.000000e+00	4.525843e+00
6.133746031321690e-09	0.000000e+00	4.692807e+00
6.168132521041731e-09	0.000000e+00	4.812369e+00
6.207195021041730e-09	0.000000e+00	4.894118e+00
6.246257521041730e-09	0.000000e+00	4.940076e+00
6.285320021041729e-09	0.000000e+00	4.966404e+00
6.324382521041729e-09	0.000000e+00	4.980883e+00
6.363445021041729e-09	0.000000e+00	4.989414e+00
6.402507521041728e-09	0.000000e+00	4.993859e+00
6.441570021041728e-09	0.000000e+00	4.996720e+00
6.480632521041728e-09	0.000000e+00	4.997976e+00
6.519695021041727e-09	0.000000e+00	4.999035e+00
6.558757521041727e-09	0.000000e+00	4.999284e+00
6.597820021041726e-09	0.000000e+00	4.999767e+00
6.636882521041726e-09	0.000000e+00	4.999700e+00
6.675945021041726e-09	0.000000e+00	4.999998e+00
6.715007521041725e-09	0.000000e+00	4.999834e+00
6.754070021041725e-09	0.000000e+00	5.000070e+00
6.793132521041725e-09	0.000000e+00	4.999876e+00
6.832195021041724e-09	0.000000e+00	5.000090e+00
6.871257521041724e-09	0.000000e+00	4.999891e+00
6.910320021041723e-09	0.000000e+00	5.000094e+00
6.949382521041723e-09	0.000000e+00	4.999896e+00
6.988445021041723e-09	0.000000e+00	5.000093e+00
7.027507521041722e-09	0.000000e+00	4.999898e+00
7.066570021041722e-09	0.000000e+00	5.000090e+00
7.105632521041722e-09	0.000000e+00	4.999900e+00
7.144695021041721e-09	0.000000e+00	5.000088e+00
7.183757521041721e-09	0.000000e+00	4.999902e+00
7.222820021041720e-09	0.000000e+00	5.000086e+00
7.261882521041720e-09	0.000000e+00	4.999905e+00
7.300945021041720e-09	0.000000e+00	5.000084e+00
7.340007521041719e-09	0.000000e+00	4.999907e+00
7.379070021041719e-09	0.000000e+00	5.000082e+00
7.418132521041719e-09	0.000000e+00	4.999909e+00
7.457195021041719e-09	0.000000e+00	5.000081e+00
7.496257521041719e-09	0.000000e+00	4.999911e+00
7.535320021041718e-09	0.000000e+00	5.000079e+00
7.574382521041718e-09	0.000000e+00	4.999913e+00
7.613445021041718e-09	0.000000e+00	5.000077e+00
7.652507521041717e-09	0.000000e+00	4.999915e+00
7.691570021041717e-09	0.000000e+00	5.000075e+00
7.730632521041716e-09	0.000000e+00	4.999917e+00
7.769695021041716e-09	0.000000e+00	5.000074e+00
7.808757521041716e-09	0.000000e+00	4.999918e+00
7.847820021041715e-09	0.000000e+00	5.000072e+00
7.886882521041715e-09	0.000000e+00	4.999920e+00
7.925945021041715e-09	0.000000e+00	5.000071e+00
7.965007521041714e-09	0.000000e+00	4.999922e+00
8.004070021041714e-09	0.000000e+00	5.000069e+00
8.043132521041713e-09	0.000000e+00	4.999924e+00
8.082195021041713e-09	0.000000e+00	5.000068e+00
8.121257521041713e-09	0.000000e+00	4.999925e+00
8.160320021041712e-09	0.000000e+00	5.000066e+00
8.199382521041712e-09	0.000000e+00	4.999927e+00
8.238445021041712e-09	0.000000e+00	5.000065e+00
8.277507521041711e-09	0.000000e+00	4.999928e+00
8.316570021041711e-09	0.000000e+00	5.000063e+00
8.355632521041710e-09	0.000000e+00	4.999930e+00
8.394695021041710e-09	0.000000e+00	5.000062e+00
8.433757521041710e-09	0.000000e+00	4.999931e+00
8.472820021041709e-09	0.000000e+00	5.000061e+00
8.511882521041709e-09	0.000000e+00	4.999933e+00
8.550945021041709e-09	0.000000e+00	5.000059e+00
8.590007521041708e-09	0.000000e+00	4.999934e+00
8.629070021041708e-09	0.000000e+00	5.000058e+00
8.668132521041707e-09	0.000000e+00	4.999936e+00
8.707195021041707e-09	0.000000e+00	5.000057e+00
8.746257521041707e-09	0.000000e+00	4.999937e+00
8.785320021041706e-09	0.000000e+00	5.000055e+00
8.824382521041706e-09	0.000000e+00	4.999938e+00
8.863445021041706e-09	0.000000e+00	5.000054e+00
8.902507521041705e-09	0.000000e+00	4.999940e+00
8.941570021041705e-09	0.000000e+00	5.000053e+00
8.980632521041704e-09	0.000000e+00	4.999941e+00
9.019695021041704e-09	0.000000e+00	5.000052e+00
9.058757521041704e-09	0.000000e+00	4.999942e+00
9.097820021041703e-09	0.000000e+00	5.000051e+00
9.136882521041703e-09	0.000000e+00	4.999944e+00
9.175945021041703e-09	0.000000e+00	5.000050e+00
9.215007521041702e-09	0.000000e+00	4.999945e+00
9.254070021041702e-09	0.000000e+00	5.000049e+00
9.293132521041701e-09	0.000000e+00	4.999946e+00
9.332195021041701e-09	0.000000e+00	5.000048e+00
9.371257521041701e-09	0.000000e+00	4.999947e+00
9.410320021041700e-09	0.000000e+00	5.000047e+00
9.449382521041700e-09	0.000000e+00	4.999948e+00
9.488445021041700e-09	0.000000e+00	5.000046e+00
9.527507521041699e-09	0.000000e+00	4.999949e+00
9.566570021041699e-09	0.000000e+00	5.000045e+00
9.605632521041698e-09	0.000000e+00	4.999950e+00
9.644695021041698e-09	0.000000e+00	5.000044e+00
9.683757521041698e-09	0.000000e+00	4.999951e+00
9.722820021041697e-09	0.000000e+00	5.000043e+00
9.761882521041697e-09	0.000000e+00	4.999952e+00
9.800945021041697e-09	0.000000e+00	5.000042e+00
9.840007521041696e-09	0.000000e+00	4.999953e+00
9.879070021041696e-09	0.000000e+00	5.000041e+00
9.918132521041695e-09	0.000000e+00	4.999954e+00
9.957195021041695e-09	0.000000e+00	5.000040e+00
9.996257521041695e-09	0.000000e+00	4.999955e+00
1.003532002104169e-08	0.000000e+00	5.000040e+00
1.007438252104169e-08	0.000000e+00	4.999956e+00
1.011344502104169e-08	0.000000e+00	5.000039e+00
1.015250752104169e-08	0.000000e+00	4.999957e+00
1.019157002104169e-08	0.000000e+00	5.000038e+00
1.023063252104169e-08	0.000000e+00	4.999958e+00
1.026969502104169e-08	0.000000e+00	5.000037e+00
1.030875752104169e-08	0.000000e+00	4.999959e+00
1.034782002104169e-08	0.000000e+00	5.000036e+00
1.038688252104169e-08	0.000000e+00	4.999960e+00
1.042594502104169e-08	0.000000e+00	5.000035e+00
1.046500752104169e-08	0.000000e+00	4.999960e+00
1.050407002104169e-08	0.000000e+00	5.000035e+00
1.054313252104169e-08	0.000000e+00	4.999961e+00
1.058219502104169e-08	0.000000e+00	5.000034e+00
1.062125752104169e-08	0.000000e+00	4.999962e+00
1.066032002104169e-08	0.000000e+00	5.000033e+00
1.069938252104169e-08	0.000000e+00	4.999963e+00
1.073844502104169e-08	0.000000e+00	5.000032e+00
1.077750752104169e-08	0.000000e+00	4.999964e+00
1.080000000000000e-08	0.000000e+00	5.000031e+00
1.080224924789583e-08	1.124624e-01	5.005812e+00
1.080674774368749e-08	3.373872e-01	5.017832e+00
1.081574473527082e-08	7.872368e-01	5.040803e+00
1.083317727843751e-08	1.658864e+00	5.055064e+00
1.085728623361063e-08	2.864312e+00	4.979700e+00
1.088363673656873e-08	4.181837e+00	4.762522e+00
1.090000000000000e-08	5.000000e+00	4.529627e+00
1.090163632634313e-08	5.000000e+00	4.500195e+00
1.090490897902938e-08	5.000000e+00	4.441309e+00
1.091145428440189e-08	5.000000e+00	4.327372e+00
1.092454489514691e-08	5.000000e+00	4.117115e+00
1.095072611663695e-08	5.000000e+00	3.715156e+00
1.098190411879590e-08	5.000000e+00	3.256791e+00
1.102096661879590e-08	5.000000e+00	2.707707e+00
1.106002911879589e-08	5.000000e+00	2.197321e+00
1.109909161879589e-08	5.000000e+00	1.763542e+00
1.113815411879589e-08	5.000000e+00	1.395394e+00
1.116887433892491e-08	5.000000e+00	1.126228e+00
1.120177348258033e-08	5.000000e+00	8.497964e-01
1.124083598258033e-08	5.000000e+00	5.820432e-01
1.127989848258033e-08	5.000000e+00	3.804899e-01
1.131896098258033e-08	5.000000e+00	2.448513e-01
1.135802348258032e-08	5.000000e+00	1.565150e-01
1.139708598258032e-08	5.000000e+00	9.977438e-02
1.143614848258032e-08	5.000000e+00	6.337687e-02
1.147521098258032e-08	5.000000e+00	4.028274e-02
1.151427348258032e-08	5.000000e+00	2.549240e-02
1.155333598258032e-08	5.000000e+00	1.621150e-02
1.159239848258032e-08	5.000000e+00	1.022691e-02
1.163146098258032e-08	5.000000e+00	6.530051e-03
1.167052348258032e-08	5.000000e+00	4.091854e-03
1.170958598258032e-08	5.000000e+00	2.639138e-03
1.174864848258032e-08	5.000000e+00	1.627865e-03
1.178771098258032e-08	5.000000e+00	1.075397e-03
1.182677348258032e-08	5.000000e+00	6.388439e-04
1.186583598258032e-08	5.000000e+00	4.465785e-04
1.190489848258032e-08	5.000000e+00	2.424531e-04
1.194396098258032e-08	5.000000e+00	1.935741e-04
1.198302348258032e-08	5.000000e+00	8.394460e-05
1.202208598258032e-08	5.000000e+00	9.190175e-05
1.206114848258032e-08	5.000000e+00	2.207240e-05
1.210021098258032e-08	5.000000e+00	5.050236e-05
1.213927348258032e-08	5.000000e+00	-2.668887e-06
1.217833598258032e-08	5.000000e+00	3.296441e-05
1.221739848258032e-08	5.000000e+00	-1.218278e-05
1.225646098258032e-08	5.000000e+00	2.531957e-05
1.229552348258032e-08	5.000000e+00	-1.541644e-05
1.233458598258032e-08	5.000000e+00	2.164330e-05
1.237364848258032e-08	5.000000e+00	-1.615780e-05
1.241271098258031e-08	5.000000e+00	1.957280e-05
1.245177348258031e-08	5.000000e+00	-1.592048e-05
1.249083598258031e-08	5.000000e+00	1.816315e-05
1.252989848258031e-08	5.000000e+00	-1.530891e-05
1.256896098258031e-08	5.000000e+00	1.703607e-05
1.260802348258031e-08	5.000000e+00	-1.456416e-05
1.264708598258031e-08	5.000000e+00	1.603984e-05
1.268614848258031e-08	5.000000e+00	-1.378211e-05
1.272521098258031e-08	5.000000e+00	1.511328e-05
1.276427348258031e-08	5.000000e+00	-1.300060e-05
1.280333598258031e-08	5.000000e+00	1.423141e-05
1.284239848258031e-08	5.000000e+00	-1.223428e-05
1.288146098258031e-08	5.000000e+00	1.338375e-05
1.292052348258031e-08	5.000000e+00	-1.148857e-05
1.295958598258031e-08	5.000000e+00	1.256561e-05
1.299864848258031e-08	5.000000e+00	-1.076520e-05
1.303771098258031e-08	5.000000e+00	1.177465e-05
1.307677348258031e-08	5.000000e+00	-1.006443e-05
1.311583598258031e-08	5.000000e+00	1.100948e-05
1.315489848258031e-08	5.000000e+00	-9.385963e-06
1.319396098258031e-08	5.000000e+00	1.026908e-05
1.323302348258031e-08	5.000000e+00	-8.729281e-06
1.327208598258031e-08	5.000000e+00	9.552631e-06
1.331114848258031e-08	5.000000e+00	-8.093790e-06
1.335021098258031e-08	5.000000e+00	8.859366e-06
1.338927348258031e-08	5.000000e+00	-7.478880e-06
1.342833598258030e-08	5.000000e+00	8.188580e-06
1.346739848258030e-08	5.000000e+00	-6.883944e-06
1.350646098258030e-08	5.000000e+00	7.539595e-06
1.354552348258030e-08	5.000000e+00	-6.308386e-06
1.358458598258030e-08	5.000000e+00	6.911755e-06
1.362364848258030e-08	5.000000e+00	-5.751630e-06
1.366271098258030e-08	5.000000e+00	6.304425e-06
1.370177348258030e-08	5.000000e+00	-5.213111e-06
1.374083598258030e-08	5.000000e+00	5.716992e-06
1.377989848258030e-08	5.000000e+00	-4.692284e-06
1.381896098258030e-08	5.000000e+00	5.148859e-06
1.385802348258030e-08	5.000000e+00	-4.188618e-06
1.389708598258030e-08	5.000000e+00	4.599447e-06
1.393614848258030e-08	5.000000e+00	-3.701599e-06
1.397521098258030e-08	5.000000e+00	4.068196e-06
1.401427348258030e-08	5.000000e+00	-3.230729e-06
1.405333598258030e-08	5.000000e+00	3.554560e-06
1.409239848258030e-08	5.000000e+00	-2.775522e-06
1.413146098258030e-08	5.000000e+00	3.058013e-06
1.417052348258030e-08	5.000000e+00	-2.335509e-06
1.420958598258030e-08	5.000000e+00	2.578041e-06
1.424864848258030e-08	5.000000e+00	-1.910235e-06
1.428771098258030e-08	5.000000e+00	2.114147e-06
1.432677348258030e-08	5.000000e+00	-1.499257e-06
1.436583598258030e-08	5.000000e+00	1.665850e-06
1.440489848258030e-08	5.000000e+00	-1.102146e-06
1.444396098258030e-08	5.000000e+00	1.232680e-06
1.448302348258029e-08	5.000000e+00	-7.184860e-07
1.452208598258029e-08	5.000000e+00	8.141836e-07
1.456114848258029e-08	5.000000e+00	-3.478729e-07
1.460021098258029e-08	5.000000e+00	4.099206e-07
1.463927348258029e-08	5.000000e+00	1.008520e-08
1.467833598258029e-08	5.000000e+00	1.962268e-08
1.471739848258029e-08	5.000000e+00	3.558650e-07
1.475646098258029e-08	5.000000e+00	-3.491464e-07
1.479552348258029e-08	5.000000e+00	7.084478e-07
1.483458598258029e-08	5.000000e+00	-6.880643e-07
1.487364848258029e-08	5.000000e+00	1.057120e-06
1.491271098258029e-08	5.000000e+00	-1.012537e-06
1.495177348258029e-08	5.000000e+00	1.395435e-06
1.499083598258029e-08	5.000000e+00	-1.324602e-06
1.502989848258029e-08	5.000000e+00	1.722640e-06
1.506896098258029e-08	5.000000e+00	-1.625312e-06
1.510802348258029e-08	5.000000e+00	2.038646e-06
