time	V(vout)	Ix(xinv_20_1@0:y_c17530)
0.000000000000000e+00	5.000000e+00	-9.116398e-16
5.000000000000000e-10	5.000000e+00	5.273559e-15
5.019112500898475e-10	5.005054e+00	-7.970261e-05
5.057337502695424e-10	5.015778e+00	-9.686935e-05
5.133787506289323e-10	5.036186e+00	-7.458445e-05
5.278849069500439e-10	5.057851e+00	-2.374683e-05
5.489945309673961e-10	5.015996e+00	1.469396e-04
5.700223709743161e-10	4.890803e+00	2.323766e-04
5.928607048942451e-10	4.627141e+00	4.968056e-04
6.000000000000000e-10	4.512589e+00	5.120876e-04
6.007139295105754e-10	4.499196e+00	5.812532e-04
6.021417885317265e-10	4.472221e+00	6.027676e-04
6.049975065740285e-10	4.418529e+00	5.911653e-04
6.107089426586324e-10	4.315443e+00	6.142182e-04
6.221318148278403e-10	4.124123e+00	6.159071e-04
6.449775591662561e-10	3.757411e+00	6.233316e-04
6.753441992172171e-10	3.290929e+00	6.197380e-04
7.144066992172172e-10	2.718712e+00	6.163164e-04
7.534691992172172e-10	2.187966e+00	6.025521e-04
7.925316992172172e-10	1.739742e+00	5.904783e-04
8.315941992172173e-10	1.364643e+00	5.234034e-04
8.619480481739198e-10	1.094211e+00	4.375807e-04
8.942845253469059e-10	8.194377e-01	3.266982e-04
9.333470253469059e-10	5.500767e-01	2.329925e-04
9.724095253469059e-10	3.516737e-01	1.414780e-04
1.011472025346906e-09	2.217308e-01	1.016742e-04
1.050534525346906e-09	1.388609e-01	5.353697e-05
1.089597025346906e-09	8.678702e-02	4.438082e-05
1.128659525346906e-09	5.401368e-02	1.707993e-05
1.167722025346906e-09	3.368745e-02	2.126182e-05
1.206784525346906e-09	2.087389e-02	2.677489e-06
1.245847025346906e-09	1.304608e-02	1.217526e-05
1.284909525346906e-09	8.040961e-03	-2.890109e-06
1.323972025346906e-09	5.065395e-03	8.619100e-06
1.363034525346906e-09	3.082342e-03	-5.013363e-06
1.402097025346906e-09	1.980840e-03	7.212033e-06
1.441159525346906e-09	1.167340e-03	-5.803431e-06
1.480222025346906e-09	7.883162e-04	6.638065e-06
1.519284525346906e-09	4.283126e-04	-6.079264e-06
1.558347025346907e-09	3.268118e-04	6.387460e-06
1.597409525346907e-09	1.436923e-04	-6.157524e-06
1.636472025346907e-09	1.479088e-04	6.263119e-06
1.675534525346907e-09	3.445851e-05	-6.160871e-06
1.714597025346907e-09	7.851802e-05	6.189198e-06
1.753659525346907e-09	-6.007490e-06	-6.135700e-06
1.792722025346907e-09	5.127578e-05	6.134998e-06
1.831784525346907e-09	-2.119034e-05	-6.100796e-06
1.870847025346907e-09	4.006888e-05	6.089101e-06
1.909909525346907e-09	-2.635083e-05	-6.062863e-06
1.948972025346907e-09	3.503582e-05	6.047410e-06
1.988034525346907e-09	-2.767857e-05	-6.024751e-06
2.027097025346907e-09	3.239523e-05	6.008294e-06
2.066159525346907e-09	-2.755177e-05	-5.987501e-06
2.105222025346907e-09	3.069359e-05	5.971073e-06
2.144284525346907e-09	-2.688381e-05	-5.951460e-06
2.183347025346907e-09	2.937188e-05	5.935431e-06
2.222409525346907e-09	-2.602525e-05	-5.916709e-06
2.261472025346907e-09	2.821481e-05	5.901199e-06
2.300534525346907e-09	-2.511034e-05	-5.883233e-06
2.339597025346907e-09	2.713918e-05	5.868265e-06
2.378659525346907e-09	-2.419027e-05	-5.850979e-06
2.417722025346907e-09	2.611256e-05	5.836543e-06
2.456784525346907e-09	-2.328427e-05	-5.819885e-06
2.495847025346907e-09	2.512206e-05	5.805955e-06
2.534909525346907e-09	-2.239932e-05	-5.789886e-06
2.573972025346907e-09	2.416227e-05	5.776433e-06
2.613034525346907e-09	-2.153771e-05	-5.760918e-06
2.652097025346907e-09	2.323069e-05	5.747914e-06
2.691159525346907e-09	-2.069993e-05	-5.732920e-06
2.730222025346907e-09	2.232594e-05	5.720337e-06
2.769284525346908e-09	-1.988577e-05	-5.705834e-06
2.808347025346908e-09	2.144707e-05	5.693645e-06
2.847409525346908e-09	-1.909478e-05	-5.679604e-06
2.886472025346908e-09	2.059332e-05	5.667785e-06
2.925534525346908e-09	-1.832643e-05	-5.654178e-06
2.964597025346908e-09	1.976401e-05	5.642704e-06
3.003659525346908e-09	-1.758015e-05	-5.629508e-06
3.042722025346908e-09	1.895849e-05	5.618356e-06
3.081784525346908e-09	-1.685537e-05	-5.605545e-06
3.120847025346908e-09	1.817613e-05	5.594693e-06
3.159909525346908e-09	-1.615154e-05	-5.582245e-06
3.198972025346908e-09	1.741633e-05	5.571675e-06
3.238034525346908e-09	-1.546809e-05	-5.559567e-06
3.277097025346908e-09	1.667850e-05	5.549259e-06
3.316159525346908e-09	-1.480449e-05	-5.537472e-06
3.355222025346908e-09	1.596204e-05	5.527407e-06
3.394284525346908e-09	-1.416022e-05	-5.515921e-06
3.433347025346908e-09	1.526642e-05	5.506082e-06
3.472409525346908e-09	-1.353476e-05	-5.494879e-06
3.511472025346908e-09	1.459106e-05	5.485251e-06
3.550534525346908e-09	-1.292761e-05	-5.474313e-06
3.589597025346908e-09	1.393543e-05	5.464880e-06
3.628659525346908e-09	-1.233828e-05	-5.454191e-06
3.667722025346908e-09	1.329901e-05	5.444940e-06
3.706784525346908e-09	-1.176629e-05	-5.434484e-06
3.745847025346909e-09	1.268128e-05	5.425400e-06
3.784909525346908e-09	-1.121117e-05	-5.415163e-06
3.823972025346908e-09	1.208174e-05	5.406235e-06
3.863034525346907e-09	-1.067248e-05	-5.396203e-06
3.902097025346907e-09	1.149990e-05	5.387418e-06
3.941159525346907e-09	-1.014975e-05	-5.377578e-06
3.980222025346906e-09	1.093528e-05	5.368925e-06
4.019284525346906e-09	-9.642572e-06	-5.359264e-06
4.058347025346906e-09	1.038743e-05	5.350733e-06
4.097409525346905e-09	-9.150506e-06	-5.341240e-06
4.136472025346905e-09	9.855872e-06	5.332821e-06
4.175534525346904e-09	-8.673145e-06	-5.323485e-06
4.214597025346904e-09	9.340177e-06	5.315169e-06
4.253659525346904e-09	-8.210085e-06	-5.305979e-06
4.292722025346903e-09	8.839909e-06	5.297758e-06
4.331784525346903e-09	-7.760935e-06	-5.288704e-06
4.370847025346903e-09	8.354646e-06	5.280569e-06
4.409909525346902e-09	-7.325311e-06	-5.271643e-06
4.448972025346902e-09	7.883975e-06	5.263586e-06
4.488034525346901e-09	-6.902841e-06	-5.254779e-06
4.527097025346901e-09	7.427496e-06	5.246793e-06
4.566159525346901e-09	-6.493161e-06	-5.238097e-06
4.605222025346900e-09	6.984818e-06	5.230176e-06
4.644284525346900e-09	-6.095915e-06	-5.221583e-06
4.683347025346900e-09	6.555560e-06	5.213720e-06
4.722409525346899e-09	-5.710760e-06	-5.205223e-06
4.761472025346899e-09	6.139349e-06	5.197413e-06
4.800534525346898e-09	-5.337358e-06	-5.189006e-06
4.839597025346898e-09	5.735825e-06	5.181244e-06
4.878659525346898e-09	-4.975381e-06	-5.172918e-06
4.917722025346897e-09	5.344632e-06	5.165199e-06
4.956784525346897e-09	-4.624510e-06	-5.156950e-06
4.995847025346897e-09	4.965429e-06	5.149268e-06
5.034909525346896e-09	-4.284434e-06	-5.141091e-06
5.073972025346896e-09	4.597879e-06	5.133442e-06
5.113034525346895e-09	-3.954849e-06	-5.125331e-06
5.152097025346895e-09	4.241657e-06	5.117712e-06
5.191159525346895e-09	-3.635461e-06	-5.109662e-06
5.230222025346894e-09	3.896444e-06	5.102069e-06
5.269284525346894e-09	-3.325982e-06	-5.094075e-06
5.308347025346894e-09	3.561930e-06	5.086504e-06
5.347409525346893e-09	-3.026131e-06	-5.078563e-06
5.386472025346893e-09	3.237814e-06	5.071011e-06
5.425534525346892e-09	-2.735636e-06	-5.063118e-06
5.464597025346892e-09	2.923803e-06	5.055582e-06
5.503659525346892e-09	-2.454232e-06	-5.047733e-06
5.542722025346891e-09	2.619610e-06	5.040211e-06
5.581784525346891e-09	-2.181661e-06	-5.032403e-06
5.620847025346891e-09	2.324957e-06	5.024892e-06
5.659909525346890e-09	-1.917670e-06	-5.017122e-06
5.698972025346890e-09	2.039574e-06	5.009619e-06
5.738034525346889e-09	-1.662016e-06	-5.001884e-06
5.750000000000000e-09	1.487209e-06	4.977197e-06
5.751196547465311e-09	-2.504760e-03	6.413992e-05
5.753589642395933e-09	-7.552859e-03	7.761450e-05
5.758375832257178e-09	-1.708388e-02	6.176717e-05
5.767476946050230e-09	-3.472752e-02	7.382376e-05
5.783187406144632e-09	-2.984246e-02	-8.869869e-05
5.801656401480185e-09	6.905535e-02	-2.789895e-04
5.821096106138255e-09	2.908388e-01	-5.157804e-04
5.850000000000000e-09	8.833703e-01	-9.645150e-04
5.852890389386175e-09	9.628383e-01	-1.039298e-03
5.858671168158524e-09	1.120424e+00	-1.049160e-03
5.870232725703223e-09	1.424683e+00	-1.022620e-03
5.890104663313379e-09	1.919692e+00	-9.986712e-04
5.929167163313379e-09	2.785086e+00	-8.755188e-04
5.968229663313378e-09	3.478648e+00	-6.802200e-04
6.007292163313378e-09	3.924040e+00	-5.446849e-04
6.039036841038751e-09	4.153372e+00	-4.372458e-04
6.065486310677964e-09	4.330267e+00	-3.403198e-04
6.095432997421529e-09	4.540174e+00	-2.112085e-04
6.126266203633896e-09	4.705836e+00	-1.518286e-04
6.160342851463735e-09	4.823434e+00	-7.674116e-05
6.199405351463735e-09	4.903097e+00	-5.708253e-05
6.238467851463735e-09	4.946507e+00	-1.716984e-05
6.277530351463734e-09	4.970902e+00	-2.360156e-05
6.316592851463734e-09	4.983772e+00	1.018303e-06
6.355655351463733e-09	4.991356e+00	-1.326173e-05
6.394717851463733e-09	4.995008e+00	6.385668e-06
6.433780351463733e-09	4.997512e+00	-9.999632e-06
6.472842851463732e-09	4.998389e+00	7.860066e-06
6.511905351463732e-09	4.999360e+00	-8.877617e-06
6.550967851463732e-09	4.999409e+00	8.164365e-06
6.590030351463731e-09	4.999912e+00	-8.401528e-06
6.629092851463731e-09	4.999719e+00	8.118526e-06
6.668155351463730e-09	5.000075e+00	-8.124203e-06
6.707217851463730e-09	4.999813e+00	7.971968e-06
6.746280351463730e-09	5.000121e+00	-7.911190e-06
6.785342851463729e-09	4.999841e+00	7.796580e-06
6.824405351463729e-09	5.000128e+00	-7.721039e-06
6.863467851463729e-09	4.999852e+00	7.616809e-06
6.902530351463728e-09	5.000127e+00	-7.537906e-06
6.941592851463728e-09	4.999857e+00	7.437965e-06
6.980655351463727e-09	5.000125e+00	-7.358908e-06
7.019717851463727e-09	4.999862e+00	7.261453e-06
7.058780351463727e-09	5.000122e+00	-7.183213e-06
7.097842851463726e-09	4.999866e+00	7.087713e-06
7.136905351463726e-09	5.000118e+00	-7.010596e-06
7.175967851463726e-09	4.999870e+00	6.916896e-06
7.215030351463725e-09	5.000115e+00	-6.841005e-06
7.254092851463725e-09	4.999873e+00	6.749060e-06
7.293155351463724e-09	5.000112e+00	-6.674434e-06
7.332217851463724e-09	4.999877e+00	6.584231e-06
7.371280351463724e-09	5.000109e+00	-6.510891e-06
7.410342851463723e-09	4.999880e+00	6.422423e-06
7.449405351463723e-09	5.000106e+00	-6.350378e-06
7.488467851463723e-09	4.999884e+00	6.263640e-06
7.527530351463722e-09	5.000103e+00	-6.192897e-06
7.566592851463722e-09	4.999887e+00	6.107880e-06
7.605655351463721e-09	5.000100e+00	-6.038444e-06
7.644717851463721e-09	4.999890e+00	5.955139e-06
7.683780351463721e-09	5.000097e+00	-5.887011e-06
7.722842851463720e-09	4.999893e+00	5.805407e-06
7.761905351463720e-09	5.000094e+00	-5.738584e-06
7.800967851463720e-09	4.999896e+00	5.658668e-06
7.840030351463719e-09	5.000092e+00	-5.593149e-06
7.879092851463719e-09	4.999899e+00	5.514906e-06
7.918155351463718e-09	5.000089e+00	-5.450685e-06
7.957217851463718e-09	4.999902e+00	5.374099e-06
7.996280351463718e-09	5.000087e+00	-5.311169e-06
8.035342851463717e-09	4.999904e+00	5.236223e-06
8.074405351463717e-09	5.000084e+00	-5.174577e-06
8.113467851463717e-09	4.999907e+00	5.101253e-06
8.152530351463716e-09	5.000082e+00	-5.040881e-06
8.191592851463716e-09	4.999909e+00	4.969159e-06
8.230655351463715e-09	5.000080e+00	-4.910050e-06
8.269717851463715e-09	4.999912e+00	4.839911e-06
8.308780351463715e-09	5.000078e+00	-4.782053e-06
8.347842851463714e-09	4.999915e+00	4.713474e-06
8.386905351463714e-09	5.000075e+00	-4.656856e-06
8.425967851463714e-09	4.999917e+00	4.589815e-06
8.465030351463713e-09	5.000073e+00	-4.534422e-06
8.504092851463713e-09	4.999919e+00	4.468898e-06
8.543155351463712e-09	5.000072e+00	-4.414715e-06
8.582217851463712e-09	4.999921e+00	4.350685e-06
8.621280351463712e-09	5.000069e+00	-4.297698e-06
8.660342851463711e-09	4.999924e+00	4.235138e-06
8.699405351463711e-09	5.000067e+00	-4.183330e-06
8.738467851463711e-09	4.999926e+00	4.122217e-06
8.777530351463710e-09	5.000066e+00	-4.071573e-06
8.816592851463710e-09	4.999928e+00	4.011881e-06
8.855655351463710e-09	5.000064e+00	-3.962384e-06
8.894717851463709e-09	4.999930e+00	3.904091e-06
8.933780351463709e-09	5.000062e+00	-3.855722e-06
8.972842851463708e-09	4.999932e+00	3.798803e-06
9.011905351463708e-09	5.000060e+00	-3.751547e-06
9.050967851463708e-09	4.999934e+00	3.695976e-06
9.090030351463707e-09	5.000059e+00	-3.649814e-06
9.129092851463707e-09	4.999935e+00	3.595568e-06
9.168155351463707e-09	5.000057e+00	-3.550482e-06
9.207217851463706e-09	4.999937e+00	3.497536e-06
9.246280351463706e-09	5.000055e+00	-3.453507e-06
9.285342851463705e-09	4.999939e+00	3.401837e-06
9.324405351463705e-09	5.000054e+00	-3.358847e-06
9.363467851463705e-09	4.999940e+00	3.308428e-06
9.402530351463704e-09	5.000052e+00	-3.266459e-06
9.441592851463704e-09	4.999942e+00	3.217265e-06
9.480655351463704e-09	5.000051e+00	-3.176299e-06
9.519717851463703e-09	4.999944e+00	3.128307e-06
9.558780351463703e-09	5.000050e+00	-3.088324e-06
9.597842851463702e-09	4.999945e+00	3.041510e-06
9.636905351463702e-09	5.000048e+00	-3.002492e-06
9.675967851463702e-09	4.999947e+00	2.956832e-06
9.715030351463701e-09	5.000047e+00	-2.918760e-06
9.754092851463701e-09	4.999948e+00	2.874230e-06
9.793155351463701e-09	5.000046e+00	-2.837086e-06
9.832217851463700e-09	4.999949e+00	2.793663e-06
9.871280351463700e-09	5.000044e+00	-2.757428e-06
9.910342851463699e-09	4.999951e+00	2.715087e-06
9.949405351463699e-09	5.000043e+00	-2.679744e-06
9.988467851463699e-09	4.999952e+00	2.638463e-06
1.002753035146370e-08	5.000042e+00	-2.603993e-06
1.006659285146370e-08	4.999954e+00	2.563749e-06
1.010565535146370e-08	5.000041e+00	-2.530134e-06
1.014471785146370e-08	4.999955e+00	2.490904e-06
1.018378035146370e-08	5.000040e+00	-2.458126e-06
1.022284285146370e-08	4.999956e+00	2.419888e-06
1.026190535146370e-08	5.000039e+00	-2.387929e-06
1.030096785146370e-08	4.999958e+00	2.350661e-06
1.034003035146370e-08	5.000038e+00	-2.319505e-06
1.037909285146369e-08	4.999959e+00	2.283185e-06
1.041815535146369e-08	5.000037e+00	-2.252814e-06
1.045721785146369e-08	4.999959e+00	2.217421e-06
1.049628035146369e-08	5.000036e+00	-2.187817e-06
1.053534285146369e-08	4.999961e+00	2.153331e-06
1.057440535146369e-08	5.000034e+00	-2.124478e-06
1.061346785146369e-08	4.999962e+00	2.090876e-06
1.065253035146369e-08	5.000033e+00	-2.062757e-06
1.069159285146369e-08	4.999963e+00	2.030021e-06
1.073065535146369e-08	5.000033e+00	-2.002620e-06
1.076971785146369e-08	4.999964e+00	1.970729e-06
1.080000000000000e-08	5.000031e+00	-1.935770e-06
1.080302821485363e-08	5.008144e+00	-8.263144e-05
1.080908464456089e-08	5.024666e+00	-9.050421e-05
1.082119750397542e-08	5.051650e+00	-5.390714e-05
1.083964203502352e-08	5.044859e+00	7.349779e-05
1.086400264594922e-08	4.935183e+00	2.124349e-04
1.088876131075387e-08	4.684159e+00	4.297468e-04
1.090000000000000e-08	4.509060e+00	5.489003e-04
1.090112386892461e-08	4.487895e+00	5.887500e-04
1.090337160677384e-08	4.445488e+00	6.001170e-04
1.090786708247229e-08	4.362395e+00	5.986126e-04
1.091685803386919e-08	4.208138e+00	6.236469e-04
1.093483993666299e-08	3.915235e+00	6.132545e-04
1.096291537629271e-08	3.476619e+00	6.291943e-04
1.100197787629271e-08	2.894587e+00	6.104038e-04
1.104104037629271e-08	2.348113e+00	6.147395e-04
1.108010287629271e-08	1.871971e+00	5.896100e-04
1.111916537629271e-08	1.471736e+00	5.547264e-04
1.114891652283807e-08	1.211278e+00	4.796941e-04
1.118294318732651e-08	9.097433e-01	3.591099e-04
1.121915808773207e-08	6.383174e-01	2.691240e-04
1.125695268909390e-08	4.201516e-01	1.677621e-04
1.129601518909390e-08	2.653232e-01	1.204943e-04
1.133507768909390e-08	1.666530e-01	6.455566e-05
1.137414018909390e-08	1.039867e-01	5.251178e-05
1.141320268909390e-08	6.508661e-02	2.124210e-05
1.145226518909390e-08	4.029591e-02	2.471650e-05
1.149132768909390e-08	2.530076e-02	4.127326e-06
1.153039018909390e-08	1.549993e-02	1.365783e-05
1.156945268909390e-08	9.860133e-03	-2.420496e-06
1.160851518909390e-08	5.907434e-03	9.239436e-06
1.164757768909390e-08	3.889748e-03	-4.832523e-06
1.168664018909390e-08	2.203256e-03	7.407485e-06
1.172570268909390e-08	1.580453e-03	-5.644621e-06
1.176476518909390e-08	7.751255e-04	6.581167e-06
1.180382768909390e-08	6.867314e-04	-5.841099e-06
1.184289018909390e-08	2.255842e-04	6.146115e-06
1.188195268909390e-08	3.382846e-04	-5.803917e-06
1.192101518909390e-08	1.534450e-05	5.866372e-06
1.196007768909390e-08	2.014471e-04	-5.679558e-06
1.199914018909390e-08	-6.354700e-05	5.651504e-06
1.203820268909390e-08	1.474821e-04	-5.526737e-06
1.207726518909390e-08	-9.123163e-05	5.466142e-06
1.211632768909390e-08	1.249683e-04	-5.366502e-06
1.215539018909390e-08	-9.956845e-05	5.295167e-06
1.219445268909390e-08	1.152872e-04	-5.205681e-06
1.223351518909389e-08	-9.909798e-05	5.133366e-06
1.227257768909389e-08	1.102248e-04	-5.048372e-06
1.231164018909389e-08	-9.699390e-05	4.977158e-06
1.235070268909389e-08	1.062416e-04	-4.895420e-06
1.238976518909389e-08	-9.436777e-05	4.825936e-06
1.242882768909389e-08	1.027422e-04	-4.746929e-06
1.246789018909389e-08	-9.159825e-05	4.679377e-06
1.250695268909389e-08	9.949054e-05	-4.602855e-06
1.254601518909389e-08	-8.882893e-05	4.537276e-06
1.258507768909389e-08	9.639385e-05	-4.463102e-06
1.262414018909389e-08	-8.611325e-05	4.399474e-06
1.266320268909389e-08	9.341467e-05	-4.327554e-06
1.270226518909389e-08	-8.347005e-05	4.265833e-06
1.274132768909389e-08	9.053676e-05	-4.196089e-06
1.278039018909389e-08	-8.090497e-05	4.136224e-06
1.281945268909389e-08	8.775213e-05	-4.068589e-06
1.285851518909389e-08	-7.841857e-05	4.010526e-06
1.289757768909389e-08	8.505602e-05	-3.944934e-06
1.293664018909389e-08	-7.600955e-05	3.888621e-06
1.297570268909389e-08	8.244493e-05	-3.825010e-06
1.301476518909389e-08	-7.367592e-05	3.770396e-06
1.305382768909389e-08	7.991594e-05	-3.708707e-06
1.309289018909389e-08	-7.141550e-05	3.655739e-06
1.313195268909389e-08	7.746635e-05	-3.595913e-06
1.317101518909389e-08	-6.922604e-05	3.544543e-06
1.321007768909389e-08	7.509365e-05	-3.486525e-06
1.324914018909389e-08	-6.710535e-05	3.436705e-06
1.328820268909388e-08	7.279541e-05	-3.380441e-06
1.332726518909388e-08	-6.505127e-05	3.332124e-06
1.336632768909388e-08	7.056928e-05	-3.277559e-06
1.340539018909388e-08	-6.306170e-05	3.230701e-06
1.344445268909388e-08	6.841300e-05	-3.177786e-06
1.348351518909388e-08	-6.113463e-05	3.132342e-06
1.352257768909388e-08	6.632438e-05	-3.081026e-06
1.356164018909388e-08	-5.926810e-05	3.036954e-06
1.360070268909388e-08	6.430130e-05	-2.987189e-06
1.363976518909388e-08	-5.746018e-05	2.944448e-06
1.367882768909388e-08	6.234171e-05	-2.896187e-06
1.371789018909388e-08	-5.570906e-05	2.854736e-06
1.375695268909388e-08	6.044360e-05	-2.807934e-06
1.379601518909388e-08	-5.401293e-05	2.767735e-06
1.383507768909388e-08	5.860504e-05	-2.722348e-06
1.387414018909388e-08	-5.237007e-05	2.683363e-06
1.391320268909388e-08	5.682418e-05	-2.639347e-06
1.395226518909388e-08	-5.077881e-05	2.601540e-06
1.399132768909388e-08	5.509920e-05	-2.558854e-06
1.403039018909388e-08	-4.923751e-05	2.522188e-06
1.406945268909388e-08	5.342834e-05	-2.480792e-06
1.410851518909388e-08	-4.774462e-05	2.445234e-06
1.414757768909388e-08	5.180990e-05	-2.405089e-06
1.418664018909388e-08	-4.629860e-05	2.370605e-06
1.422570268909388e-08	5.024223e-05	-2.331672e-06
1.426476518909388e-08	-4.489799e-05	2.298229e-06
1.430382768909387e-08	4.872376e-05	-2.260473e-06
1.434289018909387e-08	-4.354135e-05	2.228040e-06
1.438195268909387e-08	4.725291e-05	-2.191424e-06
1.442101518909387e-08	-4.222730e-05	2.159970e-06
1.446007768909387e-08	4.582821e-05	-2.124459e-06
1.449914018909387e-08	-4.095450e-05	2.093955e-06
1.453820268909387e-08	4.444820e-05	-2.059516e-06
1.457726518909387e-08	-3.972165e-05	2.029933e-06
1.461632768909387e-08	4.311147e-05	-1.996534e-06
1.465539018909387e-08	-3.852749e-05	1.967843e-06
1.469445268909387e-08	4.181666e-05	-1.935452e-06
1.473351518909387e-08	-3.737081e-05	1.907627e-06
1.477257768909387e-08	4.056247e-05	-1.876212e-06
1.481164018909387e-08	-3.625043e-05	1.849227e-06
1.485070268909387e-08	3.934760e-05	-1.818759e-06
1.488976518909387e-08	-3.516519e-05	1.792589e-06
